
T4318 000:034 SEGGER J-Link V6.18 Log File (0001ms, 0013ms total)
T4318 000:034 DLL Compiled: Aug  3 2017 16:19:24 (0001ms, 0013ms total)
T4318 000:034 Logging started @ 2018-11-08 11:51 (0001ms, 0013ms total)
T4318 000:035 JLINK_SetWarnOutHandler(...) (0000ms, 0013ms total)
T4318 000:035 JLINK_OpenEx(...)
Firmware: J-Link Ultra Rev.1 compiled Dec  3 2013 14:27:53
Hardware: V1.00
S/N: 281100043
Feature(s): RDI, FlashBP, FlashDL, JFlash, GDB
TELNET listener socket opened on port 19021WEBSRV 
Webserver running on local port 19080  returns O.K. (0010ms, 0023ms total)
T4318 000:045 JLINK_SetErrorOutHandler(...) (0000ms, 0023ms total)
T4318 000:045 JLINK_ExecCommand("ProjectFile = "D:\Repos\PLC_481_L496_MICROBOOT\MDK-ARM\JLinkSettings.ini"", ...). C:\Program Files (x86)\SEGGER\JLink_V618\JLinkDevices.xml evaluated successfully.Device "STM32L496RG" selected.  returns 0x00 (0106ms, 0129ms total)
T4318 000:152 JLINK_ExecCommand("Device = STM32L496RGTx", ...). Device "STM32L496RG" selected.  returns 0x00 (0002ms, 0131ms total)
T4318 000:154 JLINK_ExecCommand("DisableConnectionTimeout", ...).   returns 0x01 (0000ms, 0131ms total)
T4318 000:154 JLINK_GetHardwareVersion()  returns 0x2710 (0000ms, 0131ms total)
T4318 000:154 JLINK_GetDLLVersion()  returns 61800 (0000ms, 0131ms total)
T4318 000:154 JLINK_GetFirmwareString(...) (0000ms, 0131ms total)
T4318 000:154 JLINK_GetDLLVersion()  returns 61800 (0000ms, 0131ms total)
T4318 000:154 JLINK_GetCompileDateTime() (0000ms, 0131ms total)
T4318 000:155 JLINK_GetFirmwareString(...) (0000ms, 0131ms total)
T4318 000:155 JLINK_GetHardwareVersion()  returns 0x2710 (0000ms, 0131ms total)
T4318 000:155 JLINK_TIF_Select(JLINKARM_TIF_SWD)  returns 0x00 (0002ms, 0133ms total)
T4318 000:157 JLINK_SetSpeed(20000) (0000ms, 0133ms total)
T4318 000:157 JLINK_GetId() >0x10B TIF>Found SW-DP with ID 0x2BA01477 >0x0D TIF> >0x28 TIF> >0x0D TIF> >0x28 TIF> >0x0D TIF> >0x28 TIF> >0x0D TIF> >0x28 TIF> >0x0D TIF> >0x21 TIF> >0x0D TIF> >0x28 TIF> >0x0D TIF> >0x28 TIF> >0x0D TIF> >0x28 TIF> >0x0D TIF> >0x0D TIF> >0x21 TIF> >0x0D TIF> >0x21 TIF> >0x0D TIF> >0x28 TIF> >0x0D TIF> >0x0D TIF> >0x21 TIF> >0x0D TIF> >0x21 TIF> >0x0D TIF> >0x28 TIF> >0x0D TIF> >0x0D TIF> >0x21 TIF> >0x0D TIF> >0x21 TIF> >0x0D TIF> >0x28 TIF> >0x0D TIF> >0x0D TIF> >0x21 TIF>
 >0x0D TIF> >0x21 TIF> >0x0D TIF> >0x28 TIF> >0x0D TIF> >0x0D TIF> >0x21 TIF> >0x0D TIF> >0x21 TIF> >0x0D TIF> >0x28 TIF> >0x0D TIF> >0x0D TIF> >0x21 TIF> >0x0D TIF> >0x21 TIF>STM32 (Protection Detection): Unexpected IDCODE DEV_ID 0x0461 found. Only checking the 1st flash bank for write protection. >0x0D TIF> >0x28 TIF> >0x0D TIF> >0x0D TIF> >0x21 TIF> >0x0D TIF> >0x21 TIF> >0x0D TIF> >0x28 TIF> >0x0D TIF> >0x0D TIF> >0x21 TIF> >0x0D TIF> >0x21 TIF> >0x0D TIF> >0x28 TIF> >0x0D TIF> >0x0D TIF> >0x21 TIF>
 >0x0D TIF> >0x21 TIF> >0x0D TIF> >0x28 TIF> >0x0D TIF> >0x0D TIF> >0x21 TIF> >0x0D TIF> >0x21 TIF> >0x0D TIF> >0x28 TIF> >0x0D TIF> >0x0D TIF> >0x21 TIF> >0x0D TIF> >0x21 TIF> >0x10B TIF>Found SW-DP with ID 0x2BA01477 >0x0D TIF> >0x28 TIF> >0x0D TIF> >0x28 TIF> >0x0D TIF> >0x28 TIF> >0x0D TIF> >0x28 TIF> >0x0D TIF> >0x21 TIF> >0x0D TIF> >0x28 TIF>Scanning AP map to find all available APs >0x0D TIF> >0x28 TIF> >0x0D TIF> >0x21 TIF> >0x0D TIF> >0x21 TIF> >0x0D TIF> >0x28 TIF> >0x0D TIF> >0x21 TIF>
 >0x0D TIF> >0x21 TIF>AP[1]: Stopped AP scan as end of AP map has been reachedAP[0]: AHB-AP (IDR: 0x24770011)Iterating through AP map to find AHB-AP to use >0x42 TIF> >0x28 TIF> >0x0D TIF> >0x21 TIF> >0x0D TIF> >0x21 TIF> >0x42 TIF> >0x28 TIF> >0x0D TIF> >0x28 TIF> >0x0D TIF> >0x28 TIF> >0x0D TIF> >0x0D TIF> >0x21 TIF> >0x0D TIF> >0x21 TIF>AP[0]: Core foundAP[0]: AHB-AP ROM base: 0xE00FF000 >0x0D TIF> >0x28 TIF> >0x0D TIF> >0x28 TIF> >0x0D TIF> >0x28 TIF> >0x0D TIF> >0x0D TIF> >0x21 TIF> >0x0D TIF>
 >0x21 TIF>CPUID register: 0x410FC241. Implementer code: 0x41 (ARM)Found Cortex-M4 r0p1, Little endian. -- CPU_ReadMem(4 bytes @ 0xE000EDF0) -- CPU_ReadMem(4 bytes @ 0xE0002000)FPUnit: 6 code (BP) slots and 2 literal slots -- CPU_ReadMem(4 bytes @ 0xE000EDFC) -- CPU_ReadMem(4 bytes @ 0xE0001000) -- CPU_WriteMem(4 bytes @ 0xE0001000) -- CPU_ReadMem(4 bytes @ 0xE000ED88) -- CPU_WriteMem(4 bytes @ 0xE000ED88) -- CPU_ReadMem(4 bytes @ 0xE000ED88) -- CPU_WriteMem(4 bytes @ 0xE000ED88)CoreSight components:
ROMTbl[0] @ E00FF000 -- CPU_ReadMem(16 bytes @ 0xE00FF000) -- CPU_ReadMem(16 bytes @ 0xE000EFF0) -- CPU_ReadMem(16 bytes @ 0xE000EFE0)ROMTbl[0][0]: E000E000, CID: B105E00D, PID: 000BB00C SCS -- CPU_ReadMem(16 bytes @ 0xE0001FF0) -- CPU_ReadMem(16 bytes @ 0xE0001FE0)ROMTbl[0][1]: E0001000, CID: B105E00D, PID: 003BB002 DWT -- CPU_ReadMem(16 bytes @ 0xE0002FF0) -- CPU_ReadMem(16 bytes @ 0xE0002FE0)ROMTbl[0][2]: E0002000, CID: B105E00D, PID: 002BB003 FPB -- CPU_ReadMem(16 bytes @ 0xE0000FF0)
 -- CPU_ReadMem(16 bytes @ 0xE0000FE0)ROMTbl[0][3]: E0000000, CID: B105E00D, PID: 003BB001 ITM -- CPU_ReadMem(16 bytes @ 0xE00FF010) -- CPU_ReadMem(16 bytes @ 0xE0040FF0) -- CPU_ReadMem(16 bytes @ 0xE0040FE0)ROMTbl[0][4]: E0040000, CID: B105900D, PID: 000BB9A1 TPIU -- CPU_ReadMem(16 bytes @ 0xE0041FF0) -- CPU_ReadMem(16 bytes @ 0xE0041FE0)ROMTbl[0][5]: E0041000, CID: B105900D, PID: 000BB925 ETM >0x0D TIF> >0x21 TIF>  returns 0x2BA01477 (0178ms, 0311ms total)
T4318 000:336 JLINK_GetDLLVersion()  returns 61800 (0000ms, 0311ms total)
T4318 000:336 JLINK_CORE_GetFound()  returns 0xE0000FF (0000ms, 0311ms total)
T4318 000:336 JLINK_GetDebugInfo(0x100 = JLINKARM_ROM_TABLE_ADDR_INDEX) -- Value=0xE00FF000  returns 0x00 (0000ms, 0311ms total)
T4318 000:336 JLINK_ReadMem (0xE00FF000, 0x0020 Bytes, ...) -- CPU_ReadMem(32 bytes @ 0xE00FF000) - Data: 03 F0 F0 FF 03 20 F0 FF 03 30 F0 FF 03 10 F0 FF ...  returns 0x00 (0001ms, 0312ms total)
T4318 000:337 JLINK_ReadMem (0xE000EFF0, 0x0010 Bytes, ...) -- CPU_ReadMem(16 bytes @ 0xE000EFF0) - Data: 0D 00 00 00 E0 00 00 00 05 00 00 00 B1 00 00 00  returns 0x00 (0001ms, 0313ms total)
T4318 000:338 JLINK_ReadMem (0xE000EFD0, 0x0020 Bytes, ...) -- CPU_ReadMem(32 bytes @ 0xE000EFD0) - Data: 04 00 00 00 00 00 00 00 00 00 00 00 00 00 00 00 ...  returns 0x00 (0001ms, 0314ms total)
T4318 000:339 JLINK_ReadMem (0xE0001FF0, 0x0010 Bytes, ...) -- CPU_ReadMem(16 bytes @ 0xE0001FF0) - Data: 0D 00 00 00 E0 00 00 00 05 00 00 00 B1 00 00 00  returns 0x00 (0001ms, 0315ms total)
T4318 000:340 JLINK_ReadMem (0xE0001FD0, 0x0020 Bytes, ...) -- CPU_ReadMem(32 bytes @ 0xE0001FD0) - Data: 04 00 00 00 00 00 00 00 00 00 00 00 00 00 00 00 ...  returns 0x00 (0000ms, 0315ms total)
T4318 000:340 JLINK_ReadMem (0xE0002FF0, 0x0010 Bytes, ...) -- CPU_ReadMem(16 bytes @ 0xE0002FF0) - Data: 0D 00 00 00 E0 00 00 00 05 00 00 00 B1 00 00 00  returns 0x00 (0001ms, 0316ms total)
T4318 000:341 JLINK_ReadMem (0xE0002FD0, 0x0020 Bytes, ...) -- CPU_ReadMem(32 bytes @ 0xE0002FD0) - Data: 04 00 00 00 00 00 00 00 00 00 00 00 00 00 00 00 ...  returns 0x00 (0001ms, 0317ms total)
T4318 000:342 JLINK_ReadMem (0xE0000FF0, 0x0010 Bytes, ...) -- CPU_ReadMem(16 bytes @ 0xE0000FF0) - Data: 0D 00 00 00 E0 00 00 00 05 00 00 00 B1 00 00 00  returns 0x00 (0001ms, 0318ms total)
T4318 000:343 JLINK_ReadMem (0xE0000FD0, 0x0020 Bytes, ...) -- CPU_ReadMem(32 bytes @ 0xE0000FD0) - Data: 04 00 00 00 00 00 00 00 00 00 00 00 00 00 00 00 ...  returns 0x00 (0001ms, 0319ms total)
T4318 000:344 JLINK_ReadMem (0xE0040FF0, 0x0010 Bytes, ...) -- CPU_ReadMem(16 bytes @ 0xE0040FF0) - Data: 0D 00 00 00 90 00 00 00 05 00 00 00 B1 00 00 00  returns 0x00 (0001ms, 0320ms total)
T4318 000:345 JLINK_ReadMem (0xE0040FD0, 0x0020 Bytes, ...) -- CPU_ReadMem(32 bytes @ 0xE0040FD0) - Data: 04 00 00 00 00 00 00 00 00 00 00 00 00 00 00 00 ...  returns 0x00 (0001ms, 0321ms total)
T4318 000:346 JLINK_ReadMem (0xE0041FF0, 0x0010 Bytes, ...) -- CPU_ReadMem(16 bytes @ 0xE0041FF0) - Data: 0D 00 00 00 90 00 00 00 05 00 00 00 B1 00 00 00  returns 0x00 (0001ms, 0322ms total)
T4318 000:347 JLINK_ReadMem (0xE0041FD0, 0x0020 Bytes, ...) -- CPU_ReadMem(32 bytes @ 0xE0041FD0) - Data: 04 00 00 00 00 00 00 00 00 00 00 00 00 00 00 00 ...  returns 0x00 (0001ms, 0323ms total)
T4318 000:348 JLINK_ReadMemU32(0xE000EF40, 0x0001 Items, ...) -- CPU_ReadMem(4 bytes @ 0xE000EF40) - Data: 21 00 11 10  returns 0x01 (0000ms, 0323ms total)
T4318 000:348 JLINK_ReadMemU32(0xE000EF44, 0x0001 Items, ...) -- CPU_ReadMem(4 bytes @ 0xE000EF44) - Data: 11 00 00 11  returns 0x01 (0001ms, 0324ms total)
T4318 000:349 JLINK_ReadMemU32(0xE000ED00, 0x0001 Items, ...) -- CPU_ReadMem(4 bytes @ 0xE000ED00) - Data: 41 C2 0F 41  returns 0x01 (0001ms, 0325ms total)
T4318 000:350 JLINK_SetResetType(JLINKARM_CM3_RESET_TYPE_NORMAL)  returns JLINKARM_CM3_RESET_TYPE_NORMAL (0000ms, 0325ms total)
T4318 000:350 JLINK_Reset() -- CPU is running -- CPU_WriteMem(4 bytes @ 0xE000EDF0) -- CPU is running -- CPU_WriteMem(4 bytes @ 0xE000EDFC)Reset: Halt core after reset via DEMCR.VC_CORERESET. >0x35 TIF>Reset: Reset device via AIRCR.SYSRESETREQ. -- CPU is running -- CPU_WriteMem(4 bytes @ 0xE000ED0C) >0x0D TIF> >0x28 TIF> -- CPU_ReadMem(4 bytes @ 0xE000EDF0) -- CPU_ReadMem(4 bytes @ 0xE000EDF0) -- CPU is running -- CPU_WriteMem(4 bytes @ 0xE000EDF0) -- CPU is running -- CPU_WriteMem(4 bytes @ 0xE000EDFC)
 -- CPU_ReadMem(4 bytes @ 0xE000EDF0) -- CPU_WriteMem(4 bytes @ 0xE0002000) -- CPU_ReadMem(4 bytes @ 0xE000EDFC) -- CPU_ReadMem(4 bytes @ 0xE0001000) (0070ms, 0395ms total)
T4318 000:420 JLINK_ReadReg(R15 (PC))  returns 0x080001C0 (0000ms, 0395ms total)
T4318 000:420 JLINK_ReadReg(XPSR)  returns 0x01000000 (0000ms, 0395ms total)
T4318 000:420 JLINK_Halt()  returns 0x00 (0000ms, 0395ms total)
T4318 000:420 JLINK_IsHalted()  returns TRUE (0000ms, 0395ms total)
T4318 000:420 JLINK_ReadMemU32(0xE000EDF0, 0x0001 Items, ...) -- CPU_ReadMem(4 bytes @ 0xE000EDF0) - Data: 03 00 03 00  returns 0x01 (0001ms, 0396ms total)
T4318 000:421 JLINK_WriteU32(0xE000EDF0, 0xA05F0003) -- CPU_WriteMem(4 bytes @ 0xE000EDF0)  returns 0x00 (0000ms, 0396ms total)
T4318 000:421 JLINK_WriteU32(0xE000EDFC, 0x01000000) -- CPU_WriteMem(4 bytes @ 0xE000EDFC)  returns 0x00 (0001ms, 0397ms total)
T4318 000:422 JLINK_GetHWStatus(...)  returns 0x00 (0001ms, 0398ms total)
T4318 000:423 JLINK_GetNumBPUnits(Type = 0xFFFFFF00)  returns 0x06 (0000ms, 0398ms total)
T4318 000:423 JLINK_GetNumBPUnits(Type = 0xF0)  returns 0x2000 (0000ms, 0398ms total)
T4318 000:423 JLINK_GetNumWPUnits()  returns 0x04 (0000ms, 0398ms total)
T4318 000:424 JLINK_GetSpeed()  returns 0x411B (0000ms, 0398ms total)
T4318 000:424 JLINK_ReadMemU32(0xE000E004, 0x0001 Items, ...) -- CPU_ReadMem(4 bytes @ 0xE000E004) - Data: 02 00 00 00  returns 0x01 (0000ms, 0398ms total)
T4318 000:424 JLINK_ReadMemU32(0xE000E004, 0x0001 Items, ...) -- CPU_ReadMem(4 bytes @ 0xE000E004) - Data: 02 00 00 00  returns 0x01 (0001ms, 0399ms total)
T4318 000:425 JLINK_WriteMem(0xE0001000, 0x001C Bytes, ...) - Data: 01 00 00 00 00 00 00 00 00 00 00 00 00 00 00 00 ... -- CPU_WriteMem(28 bytes @ 0xE0001000)  returns 0x1C (0002ms, 0401ms total)
T4318 000:427 JLINK_ReadMem (0xE0001000, 0x001C Bytes, ...) -- CPU_ReadMem(28 bytes @ 0xE0001000) - Data: 01 00 00 40 00 00 00 00 00 00 00 00 00 00 00 00 ...  returns 0x00 (0000ms, 0401ms total)
T4318 000:427 JLINK_ReadReg(R15 (PC))  returns 0x080001C0 (0000ms, 0401ms total)
T4318 000:427 JLINK_ReadReg(XPSR)  returns 0x01000000 (0000ms, 0401ms total)
T4318 000:546 JLINK_SetResetType(JLINKARM_CM3_RESET_TYPE_NORMAL)  returns JLINKARM_CM3_RESET_TYPE_NORMAL (0000ms, 0401ms total)
T4318 000:546 JLINK_Reset() -- CPU_WriteMem(4 bytes @ 0xE000EDF0) -- CPU_WriteMem(4 bytes @ 0xE000EDFC)Reset: Halt core after reset via DEMCR.VC_CORERESET. >0x35 TIF>Reset: Reset device via AIRCR.SYSRESETREQ. -- CPU_WriteMem(4 bytes @ 0xE000ED0C) >0x0D TIF> >0x28 TIF> -- CPU_ReadMem(4 bytes @ 0xE000EDF0) -- CPU_ReadMem(4 bytes @ 0xE000EDF0) -- CPU_WriteMem(4 bytes @ 0xE000EDF0) -- CPU_WriteMem(4 bytes @ 0xE000EDFC) -- CPU_ReadMem(4 bytes @ 0xE000EDF0) -- CPU_WriteMem(4 bytes @ 0xE0002000)
 -- CPU_ReadMem(4 bytes @ 0xE000EDFC) -- CPU_ReadMem(4 bytes @ 0xE0001000) (0070ms, 0471ms total)
T4318 000:616 JLINK_ReadReg(R15 (PC))  returns 0x080001C0 (0000ms, 0471ms total)
T4318 000:616 JLINK_ReadReg(XPSR)  returns 0x01000000 (0000ms, 0471ms total)
T4318 000:616 JLINK_ReadMem (0x080001C0, 0x003C Bytes, ...) -- CPU_ReadMem(64 bytes @ 0x080001C0) -- Updating C cache (64 bytes @ 0x080001C0) -- Read from C cache (60 bytes @ 0x080001C0) - Data: 06 48 80 47 06 48 00 47 FE E7 FE E7 FE E7 FE E7 ...  returns 0x00 (0002ms, 0473ms total)
T4318 003:827 JLINK_ReadMem (0x20000000, 0x0002 Bytes, ...) -- CPU_ReadMem(64 bytes @ 0x20000000) -- Updating C cache (64 bytes @ 0x20000000) -- Read from C cache (2 bytes @ 0x20000000) - Data: FE E7  returns 0x00 (0001ms, 0474ms total)
T4318 003:843 JLINK_ReadMem (0x20000004, 0x0004 Bytes, ...) -- Read from C cache (4 bytes @ 0x20000004) - Data: 0D 78 2D 06  returns 0x00 (0000ms, 0474ms total)
T4318 003:849 JLINK_ReadMem (0x20000002, 0x0002 Bytes, ...) -- Read from C cache (2 bytes @ 0x20000002) - Data: 0A E0  returns 0x00 (0000ms, 0474ms total)
T4318 003:884 JLINK_ReadMem (0x08003FE0, 0x0020 Bytes, ...) -- CPU_ReadMem(64 bytes @ 0x08003FC0) -- Updating C cache (64 bytes @ 0x08003FC0) -- Read from C cache (32 bytes @ 0x08003FE0) - Data: D4 09 01 00 FF FF FF FF FF FF FF FF FF FF FF FF ...  returns 0x00 (0001ms, 0475ms total)
T4318 003:885 JLINK_ReadMem (0x08004000, 0x03ED Bytes, ...) -- CPU_ReadMem(1024 bytes @ 0x08004000) -- Updating C cache (1024 bytes @ 0x08004000) -- Read from C cache (1005 bytes @ 0x08004000) - Data: FF FF FF FF FF FF FF FF FF FF FF FF FF FF FF FF ...  returns 0x00 (0007ms, 0482ms total)
T53E8 003:905 JLINK_SetBPEx(Addr = 0x08002BCC, Type = 0xFFFFFFF2)  returns 0x00000001 (0000ms, 0482ms total)
T53E8 003:905 JLINK_SetBPEx(Addr = 0x08001D7A, Type = 0xFFFFFFF2)  returns 0x00000002 (0000ms, 0482ms total)
T53E8 003:905 JLINK_SetBPEx(Addr = 0x08002C18, Type = 0xFFFFFFF2)  returns 0x00000003 (0000ms, 0482ms total)
T53E8 003:905 JLINK_SetBPEx(Addr = 0x08002BC4, Type = 0xFFFFFFF2)  returns 0x00000004 (0000ms, 0482ms total)
T53E8 003:905 JLINK_Go() -- CPU_WriteMem(4 bytes @ 0xE0002000) -- CPU_WriteMem(4 bytes @ 0xE0002000) -- CPU_WriteMem(4 bytes @ 0xE0002000) -- CPU_WriteMem(4 bytes @ 0xE0002000) -- CPU_ReadMem(4 bytes @ 0xE0001000) -- CPU_WriteMem(4 bytes @ 0xE0002008) -- CPU_WriteMem(4 bytes @ 0xE000200C) -- CPU_WriteMem(4 bytes @ 0xE0002010) -- CPU_WriteMem(4 bytes @ 0xE0002014) -- CPU_WriteMem(4 bytes @ 0xE0002018) -- CPU_WriteMem(4 bytes @ 0xE000201C) -- CPU_WriteMem(4 bytes @ 0xE0001004) (0008ms, 0490ms total)
T53E8 004:013 JLINK_IsHalted()  returns TRUE (0003ms, 0493ms total)
T53E8 004:016 JLINK_Halt()  returns 0x00 (0000ms, 0490ms total)
T53E8 004:016 JLINK_IsHalted()  returns TRUE (0000ms, 0490ms total)
T53E8 004:016 JLINK_IsHalted()  returns TRUE (0000ms, 0490ms total)
T53E8 004:016 JLINK_IsHalted()  returns TRUE (0000ms, 0490ms total)
T53E8 004:016 JLINK_ReadReg(R15 (PC))  returns 0x08002BCC (0000ms, 0490ms total)
T53E8 004:016 JLINK_ReadReg(XPSR)  returns 0x61000000 (0000ms, 0490ms total)
T53E8 004:016 JLINK_ClrBPEx(BPHandle = 0x00000001)  returns 0x00 (0000ms, 0490ms total)
T53E8 004:016 JLINK_ClrBPEx(BPHandle = 0x00000002)  returns 0x00 (0000ms, 0490ms total)
T53E8 004:016 JLINK_ClrBPEx(BPHandle = 0x00000003)  returns 0x00 (0000ms, 0490ms total)
T53E8 004:016 JLINK_ClrBPEx(BPHandle = 0x00000004)  returns 0x00 (0000ms, 0490ms total)
T53E8 004:016 JLINK_ReadMemU32(0xE000ED30, 0x0001 Items, ...) -- CPU_ReadMem(4 bytes @ 0xE000ED30) - Data: 03 00 00 00  returns 0x01 (0001ms, 0491ms total)
T53E8 004:017 JLINK_ReadMemU32(0xE0001028, 0x0001 Items, ...) -- CPU_ReadMem(4 bytes @ 0xE0001028) - Data: 00 00 00 00  returns 0x01 (0001ms, 0492ms total)
T53E8 004:019 JLINK_ReadMemU32(0xE0001038, 0x0001 Items, ...) -- CPU_ReadMem(4 bytes @ 0xE0001038) - Data: 00 02 00 00  returns 0x01 (0000ms, 0492ms total)
T53E8 004:019 JLINK_ReadMemU32(0xE0001048, 0x0001 Items, ...) -- CPU_ReadMem(4 bytes @ 0xE0001048) - Data: 00 00 00 00  returns 0x01 (0001ms, 0493ms total)
T53E8 004:020 JLINK_ReadMemU32(0xE0001058, 0x0001 Items, ...) -- CPU_ReadMem(4 bytes @ 0xE0001058) - Data: 00 00 00 00  returns 0x01 (0001ms, 0494ms total)
T53E8 004:021 JLINK_ReadReg(R0)  returns 0x08002BCD (0000ms, 0494ms total)
T53E8 004:021 JLINK_ReadReg(R1)  returns 0x200008A0 (0000ms, 0494ms total)
T53E8 004:021 JLINK_ReadReg(R2)  returns 0x00000000 (0001ms, 0495ms total)
T53E8 004:022 JLINK_ReadReg(R3)  returns 0x08002B75 (0000ms, 0495ms total)
T53E8 004:022 JLINK_ReadReg(R4)  returns 0x08002E98 (0000ms, 0495ms total)
T53E8 004:022 JLINK_ReadReg(R5)  returns 0x08002E98 (0000ms, 0495ms total)
T53E8 004:022 JLINK_ReadReg(R6)  returns 0x00000000 (0000ms, 0495ms total)
T53E8 004:022 JLINK_ReadReg(R7)  returns 0x00000000 (0000ms, 0495ms total)
T53E8 004:022 JLINK_ReadReg(R8)  returns 0x00000000 (0000ms, 0495ms total)
T53E8 004:022 JLINK_ReadReg(R9)  returns 0x00000000 (0000ms, 0495ms total)
T53E8 004:022 JLINK_ReadReg(R10)  returns 0x00000000 (0000ms, 0495ms total)
T53E8 004:022 JLINK_ReadReg(R11)  returns 0x00000000 (0000ms, 0495ms total)
T53E8 004:022 JLINK_ReadReg(R12)  returns 0x00000000 (0000ms, 0495ms total)
T53E8 004:022 JLINK_ReadReg(R13 (SP))  returns 0x200008A0 (0000ms, 0495ms total)
T53E8 004:022 JLINK_ReadReg(R14)  returns 0x080002A1 (0000ms, 0495ms total)
T53E8 004:022 JLINK_ReadReg(R15 (PC))  returns 0x08002BCC (0000ms, 0495ms total)
T53E8 004:022 JLINK_ReadReg(XPSR)  returns 0x61000000 (0000ms, 0495ms total)
T53E8 004:022 JLINK_ReadReg(MSP)  returns 0x200008A0 (0000ms, 0495ms total)
T53E8 004:022 JLINK_ReadReg(PSP)  returns 0x00000000 (0000ms, 0495ms total)
T53E8 004:022 JLINK_ReadReg(CFBP)  returns 0x00000000 (0000ms, 0495ms total)
T53E8 004:022 JLINK_ReadReg(FPSCR)  returns 0x00000000 (0004ms, 0499ms total)
T53E8 004:026 JLINK_ReadReg(FPS0)  returns 0x00000000 (0000ms, 0499ms total)
T53E8 004:026 JLINK_ReadReg(FPS1)  returns 0x00000000 (0000ms, 0499ms total)
T53E8 004:026 JLINK_ReadReg(FPS2)  returns 0x00000000 (0000ms, 0499ms total)
T53E8 004:026 JLINK_ReadReg(FPS3)  returns 0x00000000 (0000ms, 0499ms total)
T53E8 004:026 JLINK_ReadReg(FPS4)  returns 0x00000000 (0001ms, 0500ms total)
T53E8 004:027 JLINK_ReadReg(FPS5)  returns 0x00000000 (0000ms, 0500ms total)
T53E8 004:027 JLINK_ReadReg(FPS6)  returns 0x00000000 (0000ms, 0500ms total)
T53E8 004:027 JLINK_ReadReg(FPS7)  returns 0x00000000 (0000ms, 0500ms total)
T53E8 004:027 JLINK_ReadReg(FPS8)  returns 0x00000000 (0000ms, 0500ms total)
T53E8 004:027 JLINK_ReadReg(FPS9)  returns 0x00000000 (0000ms, 0500ms total)
T53E8 004:027 JLINK_ReadReg(FPS10)  returns 0x00000000 (0000ms, 0500ms total)
T53E8 004:027 JLINK_ReadReg(FPS11)  returns 0x00000000 (0000ms, 0500ms total)
T53E8 004:027 JLINK_ReadReg(FPS12)  returns 0x00000000 (0000ms, 0500ms total)
T53E8 004:027 JLINK_ReadReg(FPS13)  returns 0x00000000 (0000ms, 0500ms total)
T53E8 004:027 JLINK_ReadReg(FPS14)  returns 0x00000000 (0000ms, 0500ms total)
T53E8 004:027 JLINK_ReadReg(FPS15)  returns 0x00000000 (0000ms, 0500ms total)
T53E8 004:027 JLINK_ReadReg(FPS16)  returns 0x00000000 (0000ms, 0500ms total)
T53E8 004:027 JLINK_ReadReg(FPS17)  returns 0x00000000 (0000ms, 0500ms total)
T53E8 004:027 JLINK_ReadReg(FPS18)  returns 0x00000000 (0000ms, 0500ms total)
T53E8 004:027 JLINK_ReadReg(FPS19)  returns 0x00000000 (0000ms, 0500ms total)
T53E8 004:027 JLINK_ReadReg(FPS20)  returns 0x00000000 (0000ms, 0500ms total)
T53E8 004:027 JLINK_ReadReg(FPS21)  returns 0x00000000 (0000ms, 0500ms total)
T53E8 004:027 JLINK_ReadReg(FPS22)  returns 0x00000000 (0000ms, 0500ms total)
T53E8 004:027 JLINK_ReadReg(FPS23)  returns 0x00000000 (0000ms, 0500ms total)
T53E8 004:027 JLINK_ReadReg(FPS24)  returns 0x00000000 (0000ms, 0500ms total)
T53E8 004:027 JLINK_ReadReg(FPS25)  returns 0x00000000 (0000ms, 0500ms total)
T53E8 004:027 JLINK_ReadReg(FPS26)  returns 0x00000000 (0000ms, 0500ms total)
T53E8 004:027 JLINK_ReadReg(FPS27)  returns 0x00000000 (0000ms, 0500ms total)
T53E8 004:027 JLINK_ReadReg(FPS28)  returns 0x00000000 (0000ms, 0500ms total)
T53E8 004:027 JLINK_ReadReg(FPS29)  returns 0x00000000 (0000ms, 0500ms total)
T53E8 004:027 JLINK_ReadReg(FPS30)  returns 0x00000000 (0000ms, 0500ms total)
T53E8 004:027 JLINK_ReadReg(FPS31)  returns 0x00000000 (0000ms, 0500ms total)
T4318 004:028 JLINK_ReadMem (0x20000000, 0x0002 Bytes, ...) -- CPU_ReadMem(64 bytes @ 0x20000000) -- Updating C cache (64 bytes @ 0x20000000) -- Read from C cache (2 bytes @ 0x20000000) - Data: 00 00  returns 0x00 (0001ms, 0501ms total)
T4318 004:031 JLINK_ReadMem (0x20000004, 0x0004 Bytes, ...) -- Read from C cache (4 bytes @ 0x20000004) - Data: 10 00 00 00  returns 0x00 (0000ms, 0501ms total)
T4318 004:031 JLINK_ReadMem (0x20000002, 0x0002 Bytes, ...) -- Read from C cache (2 bytes @ 0x20000002) - Data: 00 00  returns 0x00 (0000ms, 0501ms total)
T53E8 005:122 JLINK_SetBPEx(Addr = 0x08001D7A, Type = 0xFFFFFFF2)  returns 0x00000005 (0000ms, 0501ms total)
T53E8 005:122 JLINK_SetBPEx(Addr = 0x08002C18, Type = 0xFFFFFFF2)  returns 0x00000006 (0000ms, 0501ms total)
T53E8 005:122 JLINK_SetBPEx(Addr = 0x08002BC4, Type = 0xFFFFFFF2)  returns 0x00000007 (0000ms, 0501ms total)
T53E8 005:122 JLINK_Go() -- CPU_WriteMem(4 bytes @ 0xE0002000) -- CPU_WriteMem(4 bytes @ 0xE0002000) -- CPU_WriteMem(4 bytes @ 0xE0002000) -- CPU_ReadMem(4 bytes @ 0xE0001000) -- CPU_WriteMem(4 bytes @ 0xE0002008) -- CPU_WriteMem(4 bytes @ 0xE000200C) -- CPU_WriteMem(4 bytes @ 0xE0002010) -- CPU_WriteMem(4 bytes @ 0xE0002014) (0009ms, 0510ms total)
T53E8 005:231 JLINK_IsHalted()  returns TRUE (0003ms, 0513ms total)
T53E8 005:234 JLINK_Halt()  returns 0x00 (0000ms, 0510ms total)
T53E8 005:234 JLINK_IsHalted()  returns TRUE (0000ms, 0510ms total)
T53E8 005:234 JLINK_IsHalted()  returns TRUE (0000ms, 0510ms total)
T53E8 005:234 JLINK_IsHalted()  returns TRUE (0000ms, 0510ms total)
T53E8 005:234 JLINK_ReadReg(R15 (PC))  returns 0x08002BC4 (0000ms, 0510ms total)
T53E8 005:234 JLINK_ReadReg(XPSR)  returns 0x81000000 (0000ms, 0510ms total)
T53E8 005:234 JLINK_ClrBPEx(BPHandle = 0x00000005)  returns 0x00 (0000ms, 0510ms total)
T53E8 005:234 JLINK_ClrBPEx(BPHandle = 0x00000006)  returns 0x00 (0000ms, 0510ms total)
T53E8 005:235 JLINK_ClrBPEx(BPHandle = 0x00000007)  returns 0x00 (0000ms, 0510ms total)
T53E8 005:235 JLINK_ReadMemU32(0xE000ED30, 0x0001 Items, ...) -- CPU_ReadMem(4 bytes @ 0xE000ED30) - Data: 03 00 00 00  returns 0x01 (0001ms, 0511ms total)
T53E8 005:236 JLINK_ReadMemU32(0xE0001028, 0x0001 Items, ...) -- CPU_ReadMem(4 bytes @ 0xE0001028) - Data: 00 00 00 00  returns 0x01 (0001ms, 0512ms total)
T53E8 005:237 JLINK_ReadMemU32(0xE0001038, 0x0001 Items, ...) -- CPU_ReadMem(4 bytes @ 0xE0001038) - Data: 00 02 00 00  returns 0x01 (0000ms, 0512ms total)
T53E8 005:238 JLINK_ReadMemU32(0xE0001048, 0x0001 Items, ...) -- CPU_ReadMem(4 bytes @ 0xE0001048) - Data: 00 00 00 00  returns 0x01 (0000ms, 0512ms total)
T53E8 005:238 JLINK_ReadMemU32(0xE0001058, 0x0001 Items, ...) -- CPU_ReadMem(4 bytes @ 0xE0001058) - Data: 00 00 00 00  returns 0x01 (0001ms, 0513ms total)
T53E8 005:239 JLINK_ReadReg(R0)  returns 0x0000B6D8 (0000ms, 0513ms total)
T53E8 005:239 JLINK_ReadReg(R1)  returns 0x00000000 (0000ms, 0513ms total)
T53E8 005:239 JLINK_ReadReg(R2)  returns 0x08002C30 (0000ms, 0513ms total)
T53E8 005:239 JLINK_ReadReg(R3)  returns 0xFFFFFFFF (0000ms, 0513ms total)
T53E8 005:240 JLINK_ReadReg(R4)  returns 0x20000000 (0000ms, 0514ms total)
T53E8 005:240 JLINK_ReadReg(R5)  returns 0x08010000 (0000ms, 0514ms total)
T53E8 005:240 JLINK_ReadReg(R6)  returns 0x00000000 (0000ms, 0514ms total)
T53E8 005:240 JLINK_ReadReg(R7)  returns 0x00000000 (0000ms, 0514ms total)
T53E8 005:240 JLINK_ReadReg(R8)  returns 0x00000000 (0000ms, 0514ms total)
T53E8 005:240 JLINK_ReadReg(R9)  returns 0x00000000 (0000ms, 0514ms total)
T53E8 005:240 JLINK_ReadReg(R10)  returns 0x00000000 (0000ms, 0514ms total)
T53E8 005:240 JLINK_ReadReg(R11)  returns 0x00000000 (0000ms, 0514ms total)
T53E8 005:240 JLINK_ReadReg(R12)  returns 0x40014000 (0000ms, 0514ms total)
T53E8 005:240 JLINK_ReadReg(R13 (SP))  returns 0x2000088C (0000ms, 0514ms total)
T53E8 005:240 JLINK_ReadReg(R14)  returns 0x08002C17 (0000ms, 0514ms total)
T53E8 005:240 JLINK_ReadReg(R15 (PC))  returns 0x08002BC4 (0000ms, 0514ms total)
T53E8 005:240 JLINK_ReadReg(XPSR)  returns 0x81000000 (0000ms, 0514ms total)
T53E8 005:240 JLINK_ReadReg(MSP)  returns 0x2000088C (0000ms, 0514ms total)
T53E8 005:240 JLINK_ReadReg(PSP)  returns 0x00000000 (0000ms, 0514ms total)
T53E8 005:240 JLINK_ReadReg(CFBP)  returns 0x00000000 (0000ms, 0514ms total)
T53E8 005:240 JLINK_ReadReg(FPSCR)  returns 0x00000000 (0004ms, 0518ms total)
T53E8 005:244 JLINK_ReadReg(FPS0)  returns 0x00000000 (0000ms, 0518ms total)
T53E8 005:244 JLINK_ReadReg(FPS1)  returns 0x00000000 (0000ms, 0518ms total)
T53E8 005:244 JLINK_ReadReg(FPS2)  returns 0x00000000 (0000ms, 0518ms total)
T53E8 005:244 JLINK_ReadReg(FPS3)  returns 0x00000000 (0000ms, 0518ms total)
T53E8 005:244 JLINK_ReadReg(FPS4)  returns 0x00000000 (0000ms, 0518ms total)
T53E8 005:244 JLINK_ReadReg(FPS5)  returns 0x00000000 (0000ms, 0518ms total)
T53E8 005:244 JLINK_ReadReg(FPS6)  returns 0x00000000 (0000ms, 0518ms total)
T53E8 005:244 JLINK_ReadReg(FPS7)  returns 0x00000000 (0000ms, 0518ms total)
T53E8 005:245 JLINK_ReadReg(FPS8)  returns 0x00000000 (0000ms, 0519ms total)
T53E8 005:245 JLINK_ReadReg(FPS9)  returns 0x00000000 (0000ms, 0519ms total)
T53E8 005:245 JLINK_ReadReg(FPS10)  returns 0x00000000 (0000ms, 0519ms total)
T53E8 005:245 JLINK_ReadReg(FPS11)  returns 0x00000000 (0000ms, 0519ms total)
T53E8 005:245 JLINK_ReadReg(FPS12)  returns 0x00000000 (0000ms, 0519ms total)
T53E8 005:245 JLINK_ReadReg(FPS13)  returns 0x00000000 (0000ms, 0519ms total)
T53E8 005:245 JLINK_ReadReg(FPS14)  returns 0x00000000 (0000ms, 0519ms total)
T53E8 005:245 JLINK_ReadReg(FPS15)  returns 0x00000000 (0000ms, 0519ms total)
T53E8 005:245 JLINK_ReadReg(FPS16)  returns 0x00000000 (0000ms, 0519ms total)
T53E8 005:245 JLINK_ReadReg(FPS17)  returns 0x00000000 (0000ms, 0519ms total)
T53E8 005:245 JLINK_ReadReg(FPS18)  returns 0x00000000 (0000ms, 0519ms total)
T53E8 005:245 JLINK_ReadReg(FPS19)  returns 0x00000000 (0000ms, 0519ms total)
T53E8 005:245 JLINK_ReadReg(FPS20)  returns 0x00000000 (0000ms, 0519ms total)
T53E8 005:245 JLINK_ReadReg(FPS21)  returns 0x00000000 (0000ms, 0519ms total)
T53E8 005:245 JLINK_ReadReg(FPS22)  returns 0x00000000 (0000ms, 0519ms total)
T53E8 005:245 JLINK_ReadReg(FPS23)  returns 0x00000000 (0000ms, 0519ms total)
T53E8 005:245 JLINK_ReadReg(FPS24)  returns 0x00000000 (0000ms, 0519ms total)
T53E8 005:245 JLINK_ReadReg(FPS25)  returns 0x00000000 (0000ms, 0519ms total)
T53E8 005:245 JLINK_ReadReg(FPS26)  returns 0x00000000 (0000ms, 0519ms total)
T53E8 005:245 JLINK_ReadReg(FPS27)  returns 0x00000000 (0000ms, 0519ms total)
T53E8 005:245 JLINK_ReadReg(FPS28)  returns 0x00000000 (0000ms, 0519ms total)
T53E8 005:245 JLINK_ReadReg(FPS29)  returns 0x00000000 (0000ms, 0519ms total)
T53E8 005:245 JLINK_ReadReg(FPS30)  returns 0x00000000 (0000ms, 0519ms total)
T53E8 005:245 JLINK_ReadReg(FPS31)  returns 0x00000000 (0000ms, 0519ms total)
T4318 005:245 JLINK_ReadMem (0x2000089C, 0x0004 Bytes, ...) -- CPU_ReadMem(64 bytes @ 0x20000880) -- Updating C cache (64 bytes @ 0x20000880) -- Read from C cache (4 bytes @ 0x2000089C) - Data: 17 2C 00 08  returns 0x00 (0002ms, 0521ms total)
T4318 005:247 JLINK_ReadMem (0x20000898, 0x0004 Bytes, ...) -- Read from C cache (4 bytes @ 0x20000898) - Data: FF FF FF FF  returns 0x00 (0000ms, 0521ms total)
T4318 005:247 JLINK_ReadMem (0x2000088C, 0x0002 Bytes, ...) -- Read from C cache (2 bytes @ 0x2000088C) - Data: D8 B6  returns 0x00 (0000ms, 0521ms total)
T4318 005:247 JLINK_ReadMem (0x20000890, 0x0001 Bytes, ...) -- Read from C cache (1 bytes @ 0x20000890) - Data: 00  returns 0x00 (0000ms, 0521ms total)
T4318 005:247 JLINK_ReadMem (0x00000000, 0x0004 Bytes, ...) -- CPU_ReadMem(4 bytes @ 0x00000000) - Data: A0 08 00 20  returns 0x00 (0001ms, 0522ms total)
T4318 005:249 JLINK_ReadMem (0x20000000, 0x0002 Bytes, ...) -- CPU_ReadMem(64 bytes @ 0x20000000) -- Updating C cache (64 bytes @ 0x20000000) -- Read from C cache (2 bytes @ 0x20000000) - Data: D8 B6  returns 0x00 (0001ms, 0523ms total)
T4318 005:252 JLINK_ReadMem (0x20000004, 0x0004 Bytes, ...) -- Read from C cache (4 bytes @ 0x20000004) - Data: D4 09 01 00  returns 0x00 (0000ms, 0523ms total)
T4318 005:253 JLINK_ReadMem (0x20000002, 0x0002 Bytes, ...) -- Read from C cache (2 bytes @ 0x20000002) - Data: 00 00  returns 0x00 (0000ms, 0523ms total)
T4318 005:283 JLINK_ReadMem (0x08002BC4, 0x003C Bytes, ...) -- CPU_ReadMem(64 bytes @ 0x08002BC0) -- Updating C cache (64 bytes @ 0x08002BC0) -- Read from C cache (60 bytes @ 0x08002BC4) - Data: 04 B0 00 BD 30 2C 00 08 FD F7 84 FD FF F7 69 FC ...  returns 0x00 (0002ms, 0525ms total)
T53E8 006:978 JLINK_Step() -- Read from C cache (2 bytes @ 0x08002BC4) -- CPU_ReadMem(4 bytes @ 0xE000ED18) -- CPU_WriteMem(4 bytes @ 0xE000ED18) -- CPU_ReadMem(4 bytes @ 0xE000ED18) -- CPU_WriteMem(4 bytes @ 0xE000ED18) -- CPU_ReadMem(4 bytes @ 0xE0001004) -- Simulated  returns 0x00 (0008ms, 0533ms total)
T53E8 006:986 JLINK_ReadReg(R15 (PC))  returns 0x08002BC6 (0000ms, 0533ms total)
T53E8 006:986 JLINK_ReadReg(XPSR)  returns 0x81000000 (0000ms, 0533ms total)
T53E8 006:986 JLINK_SetBPEx(Addr = 0x08001D7A, Type = 0xFFFFFFF2)  returns 0x00000008 (0000ms, 0533ms total)
T53E8 006:986 JLINK_SetBPEx(Addr = 0x08002C18, Type = 0xFFFFFFF2)  returns 0x00000009 (0000ms, 0533ms total)
T53E8 006:986 JLINK_SetBPEx(Addr = 0x08002BC4, Type = 0xFFFFFFF2)  returns 0x0000000A (0000ms, 0533ms total)
T53E8 006:986 JLINK_Go() -- CPU_WriteMem(4 bytes @ 0xE0002000) -- CPU_WriteMem(4 bytes @ 0xE0002000) -- CPU_WriteMem(4 bytes @ 0xE0002000) -- CPU_ReadMem(4 bytes @ 0xE0001000) -- CPU_WriteMem(4 bytes @ 0xE0001004) (0006ms, 0539ms total)
T53E8 007:092 JLINK_IsHalted()  returns TRUE (0002ms, 0541ms total)
T53E8 007:095 JLINK_Halt()  returns 0x00 (0000ms, 0539ms total)
T53E8 007:095 JLINK_IsHalted()  returns TRUE (0000ms, 0539ms total)
T53E8 007:095 JLINK_IsHalted()  returns TRUE (0000ms, 0539ms total)
T53E8 007:095 JLINK_IsHalted()  returns TRUE (0000ms, 0539ms total)
T53E8 007:095 JLINK_ReadReg(R15 (PC))  returns 0x08002C18 (0000ms, 0539ms total)
T53E8 007:095 JLINK_ReadReg(XPSR)  returns 0x81000000 (0000ms, 0539ms total)
T53E8 007:095 JLINK_ClrBPEx(BPHandle = 0x00000008)  returns 0x00 (0000ms, 0539ms total)
T53E8 007:095 JLINK_ClrBPEx(BPHandle = 0x00000009)  returns 0x00 (0000ms, 0539ms total)
T53E8 007:095 JLINK_ClrBPEx(BPHandle = 0x0000000A)  returns 0x00 (0000ms, 0539ms total)
T53E8 007:095 JLINK_ReadMemU32(0xE000ED30, 0x0001 Items, ...) -- CPU_ReadMem(4 bytes @ 0xE000ED30) - Data: 03 00 00 00  returns 0x01 (0000ms, 0539ms total)
T53E8 007:095 JLINK_ReadMemU32(0xE0001028, 0x0001 Items, ...) -- CPU_ReadMem(4 bytes @ 0xE0001028) - Data: 00 00 00 00  returns 0x01 (0001ms, 0540ms total)
T53E8 007:096 JLINK_ReadMemU32(0xE0001038, 0x0001 Items, ...) -- CPU_ReadMem(4 bytes @ 0xE0001038) - Data: 00 02 00 00  returns 0x01 (0001ms, 0541ms total)
T53E8 007:097 JLINK_ReadMemU32(0xE0001048, 0x0001 Items, ...) -- CPU_ReadMem(4 bytes @ 0xE0001048) - Data: 00 00 00 00  returns 0x01 (0001ms, 0542ms total)
T53E8 007:098 JLINK_ReadMemU32(0xE0001058, 0x0001 Items, ...) -- CPU_ReadMem(4 bytes @ 0xE0001058) - Data: 00 00 00 00  returns 0x01 (0000ms, 0542ms total)
T53E8 007:098 JLINK_ReadReg(R0)  returns 0x0000B6D8 (0000ms, 0542ms total)
T53E8 007:098 JLINK_ReadReg(R1)  returns 0x00000000 (0000ms, 0542ms total)
T53E8 007:099 JLINK_ReadReg(R2)  returns 0x08002C30 (0000ms, 0542ms total)
T53E8 007:099 JLINK_ReadReg(R3)  returns 0xFFFFFFFF (0000ms, 0542ms total)
T53E8 007:099 JLINK_ReadReg(R4)  returns 0x20000000 (0000ms, 0542ms total)
T53E8 007:099 JLINK_ReadReg(R5)  returns 0x08010000 (0000ms, 0542ms total)
T53E8 007:099 JLINK_ReadReg(R6)  returns 0x00000000 (0000ms, 0542ms total)
T53E8 007:099 JLINK_ReadReg(R7)  returns 0x00000000 (0000ms, 0542ms total)
T53E8 007:099 JLINK_ReadReg(R8)  returns 0x00000000 (0000ms, 0542ms total)
T53E8 007:099 JLINK_ReadReg(R9)  returns 0x00000000 (0000ms, 0542ms total)
T53E8 007:099 JLINK_ReadReg(R10)  returns 0x00000000 (0000ms, 0542ms total)
T53E8 007:099 JLINK_ReadReg(R11)  returns 0x00000000 (0000ms, 0542ms total)
T53E8 007:099 JLINK_ReadReg(R12)  returns 0x40014000 (0000ms, 0542ms total)
T53E8 007:099 JLINK_ReadReg(R13 (SP))  returns 0x200008A0 (0000ms, 0542ms total)
T53E8 007:099 JLINK_ReadReg(R14)  returns 0x08002C17 (0000ms, 0542ms total)
T53E8 007:099 JLINK_ReadReg(R15 (PC))  returns 0x08002C18 (0000ms, 0542ms total)
T53E8 007:099 JLINK_ReadReg(XPSR)  returns 0x81000000 (0000ms, 0542ms total)
T53E8 007:099 JLINK_ReadReg(MSP)  returns 0x200008A0 (0000ms, 0542ms total)
T53E8 007:099 JLINK_ReadReg(PSP)  returns 0x00000000 (0000ms, 0542ms total)
T53E8 007:099 JLINK_ReadReg(CFBP)  returns 0x00000000 (0000ms, 0542ms total)
T53E8 007:099 JLINK_ReadReg(FPSCR)  returns 0x00000000 (0004ms, 0546ms total)
T53E8 007:103 JLINK_ReadReg(FPS0)  returns 0x00000000 (0000ms, 0546ms total)
T53E8 007:103 JLINK_ReadReg(FPS1)  returns 0x00000000 (0000ms, 0546ms total)
T53E8 007:103 JLINK_ReadReg(FPS2)  returns 0x00000000 (0000ms, 0546ms total)
T53E8 007:103 JLINK_ReadReg(FPS3)  returns 0x00000000 (0000ms, 0546ms total)
T53E8 007:103 JLINK_ReadReg(FPS4)  returns 0x00000000 (0000ms, 0546ms total)
T53E8 007:103 JLINK_ReadReg(FPS5)  returns 0x00000000 (0000ms, 0546ms total)
T53E8 007:103 JLINK_ReadReg(FPS6)  returns 0x00000000 (0000ms, 0546ms total)
T53E8 007:103 JLINK_ReadReg(FPS7)  returns 0x00000000 (0000ms, 0546ms total)
T53E8 007:103 JLINK_ReadReg(FPS8)  returns 0x00000000 (0000ms, 0546ms total)
T53E8 007:103 JLINK_ReadReg(FPS9)  returns 0x00000000 (0000ms, 0546ms total)
T53E8 007:103 JLINK_ReadReg(FPS10)  returns 0x00000000 (0000ms, 0546ms total)
T53E8 007:103 JLINK_ReadReg(FPS11)  returns 0x00000000 (0000ms, 0546ms total)
T53E8 007:103 JLINK_ReadReg(FPS12)  returns 0x00000000 (0000ms, 0546ms total)
T53E8 007:103 JLINK_ReadReg(FPS13)  returns 0x00000000 (0000ms, 0546ms total)
T53E8 007:103 JLINK_ReadReg(FPS14)  returns 0x00000000 (0000ms, 0546ms total)
T53E8 007:103 JLINK_ReadReg(FPS15)  returns 0x00000000 (0000ms, 0546ms total)
T53E8 007:103 JLINK_ReadReg(FPS16)  returns 0x00000000 (0000ms, 0546ms total)
T53E8 007:103 JLINK_ReadReg(FPS17)  returns 0x00000000 (0000ms, 0546ms total)
T53E8 007:103 JLINK_ReadReg(FPS18)  returns 0x00000000 (0000ms, 0546ms total)
T53E8 007:103 JLINK_ReadReg(FPS19)  returns 0x00000000 (0000ms, 0546ms total)
T53E8 007:103 JLINK_ReadReg(FPS20)  returns 0x00000000 (0000ms, 0546ms total)
T53E8 007:103 JLINK_ReadReg(FPS21)  returns 0x00000000 (0000ms, 0546ms total)
T53E8 007:103 JLINK_ReadReg(FPS22)  returns 0x00000000 (0000ms, 0546ms total)
T53E8 007:103 JLINK_ReadReg(FPS23)  returns 0x00000000 (0000ms, 0546ms total)
T53E8 007:103 JLINK_ReadReg(FPS24)  returns 0x00000000 (0000ms, 0546ms total)
T53E8 007:103 JLINK_ReadReg(FPS25)  returns 0x00000000 (0000ms, 0546ms total)
T53E8 007:103 JLINK_ReadReg(FPS26)  returns 0x00000000 (0000ms, 0546ms total)
T53E8 007:103 JLINK_ReadReg(FPS27)  returns 0x00000000 (0000ms, 0546ms total)
T53E8 007:103 JLINK_ReadReg(FPS28)  returns 0x00000000 (0000ms, 0546ms total)
T53E8 007:103 JLINK_ReadReg(FPS29)  returns 0x00000000 (0000ms, 0546ms total)
T53E8 007:103 JLINK_ReadReg(FPS30)  returns 0x00000000 (0000ms, 0546ms total)
T53E8 007:103 JLINK_ReadReg(FPS31)  returns 0x00000000 (0000ms, 0546ms total)
T4318 007:104 JLINK_ReadMem (0x20000000, 0x0002 Bytes, ...) -- CPU_ReadMem(64 bytes @ 0x20000000) -- Updating C cache (64 bytes @ 0x20000000) -- Read from C cache (2 bytes @ 0x20000000) - Data: D8 B6  returns 0x00 (0001ms, 0547ms total)
T4318 007:106 JLINK_ReadMem (0x20000004, 0x0004 Bytes, ...) -- Read from C cache (4 bytes @ 0x20000004) - Data: D4 09 01 00  returns 0x00 (0000ms, 0547ms total)
T4318 007:106 JLINK_ReadMem (0x20000002, 0x0002 Bytes, ...) -- Read from C cache (2 bytes @ 0x20000002) - Data: D8 B6  returns 0x00 (0000ms, 0547ms total)
T4318 007:106 JLINK_ReadMem (0x2000088C, 0x0002 Bytes, ...) -- CPU_ReadMem(64 bytes @ 0x20000880) -- Updating C cache (64 bytes @ 0x20000880) -- Read from C cache (2 bytes @ 0x2000088C) - Data: 17 2C  returns 0x00 (0001ms, 0548ms total)
T4318 007:108 JLINK_ReadMem (0x20000890, 0x0001 Bytes, ...) -- Read from C cache (1 bytes @ 0x20000890) - Data: C6  returns 0x00 (0000ms, 0548ms total)
T4318 007:108 JLINK_ReadMem (0x20000898, 0x0004 Bytes, ...) -- Read from C cache (4 bytes @ 0x20000898) - Data: FF FF FF FF  returns 0x00 (0000ms, 0548ms total)
T53E8 016:881 JLINK_Step() -- CPU_ReadMem(64 bytes @ 0x08002C00) -- Updating C cache (64 bytes @ 0x08002C00) -- Read from C cache (2 bytes @ 0x08002C18) -- CPU_ReadMem(4 bytes @ 0xE0001004) -- Simulated  returns 0x00 (0004ms, 0552ms total)
T53E8 016:885 JLINK_ReadReg(R15 (PC))  returns 0x08002C1A (0000ms, 0552ms total)
T53E8 016:885 JLINK_ReadReg(XPSR)  returns 0x81000000 (0000ms, 0552ms total)
T53E8 016:885 JLINK_SetBPEx(Addr = 0x08001D7A, Type = 0xFFFFFFF2)  returns 0x0000000B (0000ms, 0552ms total)
T53E8 016:885 JLINK_SetBPEx(Addr = 0x08002C18, Type = 0xFFFFFFF2)  returns 0x0000000C (0000ms, 0552ms total)
T53E8 016:885 JLINK_SetBPEx(Addr = 0x08002BC4, Type = 0xFFFFFFF2)  returns 0x0000000D (0000ms, 0552ms total)
T53E8 016:885 JLINK_Go() -- CPU_WriteMem(4 bytes @ 0xE0002000) -- CPU_WriteMem(4 bytes @ 0xE0002000) -- CPU_WriteMem(4 bytes @ 0xE0002000) -- CPU_ReadMem(4 bytes @ 0xE0001000) -- CPU_WriteMem(4 bytes @ 0xE0001004) (0007ms, 0559ms total)
T53E8 016:992 JLINK_IsHalted()  returns FALSE (0001ms, 0560ms total)
T53E8 017:093 JLINK_IsHalted()  returns FALSE (0000ms, 0559ms total)
T53E8 017:193 JLINK_IsHalted()  returns FALSE (0001ms, 0560ms total)
T53E8 017:294 JLINK_IsHalted()  returns FALSE (0001ms, 0560ms total)
T53E8 017:395 JLINK_IsHalted()  returns FALSE (0001ms, 0560ms total)
T53E8 017:497 JLINK_ReadMemU32(0xE0001004, 0x0001 Items, ...) -- CPU_ReadMem(4 bytes @ 0xE0001004) - Data: C1 EA E1 02  returns 0x01 (0001ms, 0560ms total)
T4318 017:498 JLINK_ReadMem (0x20000000, 0x0002 Bytes, ...) -- CPU_ReadMem(2 bytes @ 0x20000000) - Data: 08 0F  returns 0x00 (0001ms, 0561ms total)
T4318 017:501 JLINK_ReadMem (0x20000004, 0x0004 Bytes, ...) -- CPU_ReadMem(4 bytes @ 0x20000004) - Data: BE FB 01 08  returns 0x00 (0001ms, 0562ms total)
T4318 017:502 JLINK_ReadMem (0x20000002, 0x0002 Bytes, ...) -- CPU_ReadMem(2 bytes @ 0x20000002) - Data: 00 00  returns 0x00 (0001ms, 0563ms total)
T4318 017:504 JLINK_ReadMem (0x2000088C, 0x0002 Bytes, ...) -- CPU_ReadMem(2 bytes @ 0x2000088C) - Data: C6 0F  returns 0x00 (0000ms, 0563ms total)
T4318 017:505 JLINK_ReadMem (0x20000890, 0x0001 Bytes, ...) -- CPU_ReadMem(1 bytes @ 0x20000890) - Data: CD  returns 0x00 (0001ms, 0564ms total)
T4318 017:507 JLINK_ReadMem (0x20000898, 0x0004 Bytes, ...) -- CPU_ReadMem(4 bytes @ 0x20000898) - Data: C9 0F 00 00  returns 0x00 (0000ms, 0564ms total)
T53E8 017:508 JLINK_IsHalted()  returns FALSE (0001ms, 0565ms total)
T53E8 017:609 JLINK_IsHalted()  returns FALSE (0001ms, 0565ms total)
T53E8 017:710 JLINK_IsHalted()  returns FALSE (0001ms, 0565ms total)
T53E8 017:811 JLINK_IsHalted()  returns FALSE (0001ms, 0565ms total)
T53E8 017:912 JLINK_IsHalted()  returns FALSE (0001ms, 0565ms total)
T53E8 018:013 JLINK_ReadMemU32(0xE0001004, 0x0001 Items, ...) - Data: C1 EA E1 02  returns 0x01 (0000ms, 0564ms total)
T4318 018:013 JLINK_ReadMem (0x20000000, 0x0002 Bytes, ...) -- CPU_ReadMem(2 bytes @ 0x20000000) - Data: 08 0F  returns 0x00 (0001ms, 0565ms total)
T4318 018:015 JLINK_ReadMem (0x20000004, 0x0004 Bytes, ...) -- CPU_ReadMem(4 bytes @ 0x20000004) - Data: BE FB 01 08  returns 0x00 (0001ms, 0566ms total)
T4318 018:016 JLINK_ReadMem (0x20000002, 0x0002 Bytes, ...) -- CPU_ReadMem(2 bytes @ 0x20000002) - Data: 00 00  returns 0x00 (0001ms, 0567ms total)
T4318 018:018 JLINK_ReadMem (0x2000088C, 0x0002 Bytes, ...) -- CPU_ReadMem(2 bytes @ 0x2000088C) - Data: CA 0F  returns 0x00 (0000ms, 0567ms total)
T4318 018:019 JLINK_ReadMem (0x20000890, 0x0001 Bytes, ...) -- CPU_ReadMem(1 bytes @ 0x20000890) - Data: CC  returns 0x00 (0001ms, 0568ms total)
T4318 018:020 JLINK_ReadMem (0x20000898, 0x0004 Bytes, ...) -- CPU_ReadMem(4 bytes @ 0x20000898) - Data: C7 0F 00 00  returns 0x00 (0001ms, 0569ms total)
T53E8 018:022 JLINK_IsHalted()  returns FALSE (0001ms, 0570ms total)
T53E8 018:123 JLINK_IsHalted()  returns FALSE (0000ms, 0569ms total)
T53E8 018:223 JLINK_IsHalted()  returns FALSE (0000ms, 0569ms total)
T53E8 018:323 JLINK_IsHalted()  returns FALSE (0001ms, 0570ms total)
T53E8 018:424 JLINK_IsHalted()  returns FALSE (0001ms, 0570ms total)
T53E8 018:525 JLINK_ReadMemU32(0xE0001004, 0x0001 Items, ...) - Data: C1 EA E1 02  returns 0x01 (0000ms, 0569ms total)
T4318 018:525 JLINK_ReadMem (0x20000000, 0x0002 Bytes, ...) -- CPU_ReadMem(2 bytes @ 0x20000000) - Data: 08 0F  returns 0x00 (0001ms, 0570ms total)
T4318 018:526 JLINK_ReadMem (0x20000004, 0x0004 Bytes, ...) -- CPU_ReadMem(4 bytes @ 0x20000004) - Data: BE FB 01 08  returns 0x00 (0001ms, 0571ms total)
T4318 018:527 JLINK_ReadMem (0x20000002, 0x0002 Bytes, ...) -- CPU_ReadMem(2 bytes @ 0x20000002) - Data: 00 00  returns 0x00 (0001ms, 0572ms total)
T4318 018:528 JLINK_ReadMem (0x2000088C, 0x0002 Bytes, ...) -- CPU_ReadMem(2 bytes @ 0x2000088C) - Data: C6 0F  returns 0x00 (0001ms, 0573ms total)
T4318 018:530 JLINK_ReadMem (0x20000890, 0x0001 Bytes, ...) -- CPU_ReadMem(1 bytes @ 0x20000890) - Data: CD  returns 0x00 (0000ms, 0573ms total)
T4318 018:531 JLINK_ReadMem (0x20000898, 0x0004 Bytes, ...) -- CPU_ReadMem(4 bytes @ 0x20000898) - Data: C9 0F 00 00  returns 0x00 (0001ms, 0574ms total)
T53E8 018:533 JLINK_IsHalted()  returns FALSE (0001ms, 0575ms total)
T53E8 018:634 JLINK_IsHalted()  returns FALSE (0001ms, 0575ms total)
T53E8 018:735 JLINK_IsHalted()  returns FALSE (0001ms, 0575ms total)
T53E8 018:836 JLINK_IsHalted()  returns FALSE (0001ms, 0575ms total)
T53E8 018:937 JLINK_IsHalted()  returns FALSE (0001ms, 0575ms total)
T53E8 019:038 JLINK_ReadMemU32(0xE0001004, 0x0001 Items, ...) - Data: C1 EA E1 02  returns 0x01 (0000ms, 0574ms total)
T4318 019:038 JLINK_ReadMem (0x20000000, 0x0002 Bytes, ...) -- CPU_ReadMem(2 bytes @ 0x20000000) - Data: 08 0F  returns 0x00 (0001ms, 0575ms total)
T4318 019:039 JLINK_ReadMem (0x20000004, 0x0004 Bytes, ...) -- CPU_ReadMem(4 bytes @ 0x20000004) - Data: BE FB 01 08  returns 0x00 (0001ms, 0576ms total)
T4318 019:040 JLINK_ReadMem (0x20000002, 0x0002 Bytes, ...) -- CPU_ReadMem(2 bytes @ 0x20000002) - Data: 00 00  returns 0x00 (0001ms, 0577ms total)
T4318 019:041 JLINK_ReadMem (0x2000088C, 0x0002 Bytes, ...) -- CPU_ReadMem(2 bytes @ 0x2000088C) - Data: CA 0F  returns 0x00 (0001ms, 0578ms total)
T4318 019:043 JLINK_ReadMem (0x20000890, 0x0001 Bytes, ...) -- CPU_ReadMem(1 bytes @ 0x20000890) - Data: C9  returns 0x00 (0001ms, 0579ms total)
T4318 019:044 JLINK_ReadMem (0x20000898, 0x0004 Bytes, ...) -- CPU_ReadMem(4 bytes @ 0x20000898) - Data: C9 0F 00 00  returns 0x00 (0001ms, 0580ms total)
T53E8 019:046 JLINK_IsHalted()  returns FALSE (0001ms, 0581ms total)
T53E8 019:147 JLINK_IsHalted()  returns FALSE (0002ms, 0582ms total)
T53E8 019:249 JLINK_IsHalted()  returns FALSE (0000ms, 0580ms total)
T53E8 019:349 JLINK_IsHalted()  returns FALSE (0001ms, 0581ms total)
T53E8 019:450 JLINK_IsHalted()  returns FALSE (0001ms, 0581ms total)
T53E8 019:551 JLINK_IsHalted()  returns FALSE (0001ms, 0581ms total)
T53E8 019:652 JLINK_ReadMemU32(0xE0001004, 0x0001 Items, ...) - Data: C1 EA E1 02  returns 0x01 (0000ms, 0580ms total)
T4318 019:652 JLINK_ReadMem (0x20000000, 0x0002 Bytes, ...) -- CPU_ReadMem(2 bytes @ 0x20000000) - Data: 08 0F  returns 0x00 (0001ms, 0581ms total)
T4318 019:653 JLINK_ReadMem (0x20000004, 0x0004 Bytes, ...) -- CPU_ReadMem(4 bytes @ 0x20000004) - Data: BE FB 01 08  returns 0x00 (0001ms, 0582ms total)
T4318 019:654 JLINK_ReadMem (0x20000002, 0x0002 Bytes, ...) -- CPU_ReadMem(2 bytes @ 0x20000002) - Data: 00 00  returns 0x00 (0001ms, 0583ms total)
T4318 019:655 JLINK_ReadMem (0x2000088C, 0x0002 Bytes, ...) -- CPU_ReadMem(2 bytes @ 0x2000088C) - Data: C8 0F  returns 0x00 (0001ms, 0584ms total)
T4318 019:657 JLINK_ReadMem (0x20000890, 0x0001 Bytes, ...) -- CPU_ReadMem(1 bytes @ 0x20000890) - Data: CE  returns 0x00 (0001ms, 0585ms total)
T4318 019:658 JLINK_ReadMem (0x20000898, 0x0004 Bytes, ...) -- CPU_ReadMem(4 bytes @ 0x20000898) - Data: CC 0F 00 00  returns 0x00 (0001ms, 0586ms total)
T53E8 019:660 JLINK_IsHalted()  returns FALSE (0000ms, 0586ms total)
T53E8 019:761 JLINK_IsHalted()  returns FALSE (0000ms, 0586ms total)
T53E8 019:863 JLINK_IsHalted()  returns FALSE (0000ms, 0586ms total)
T53E8 019:964 JLINK_IsHalted()  returns FALSE (0001ms, 0587ms total)
T53E8 020:065 JLINK_IsHalted()  returns FALSE (0001ms, 0587ms total)
T53E8 020:166 JLINK_ReadMemU32(0xE0001004, 0x0001 Items, ...) - Data: C1 EA E1 02  returns 0x01 (0000ms, 0586ms total)
T4318 020:166 JLINK_ReadMem (0x20000000, 0x0002 Bytes, ...) -- CPU_ReadMem(2 bytes @ 0x20000000) - Data: 08 0F  returns 0x00 (0001ms, 0587ms total)
T4318 020:167 JLINK_ReadMem (0x20000004, 0x0004 Bytes, ...) -- CPU_ReadMem(4 bytes @ 0x20000004) - Data: BE FB 01 08  returns 0x00 (0001ms, 0588ms total)
T4318 020:168 JLINK_ReadMem (0x20000002, 0x0002 Bytes, ...) -- CPU_ReadMem(2 bytes @ 0x20000002) - Data: 00 00  returns 0x00 (0001ms, 0589ms total)
T4318 020:169 JLINK_ReadMem (0x2000088C, 0x0002 Bytes, ...) -- CPU_ReadMem(2 bytes @ 0x2000088C) - Data: C8 0F  returns 0x00 (0001ms, 0590ms total)
T4318 020:171 JLINK_ReadMem (0x20000890, 0x0001 Bytes, ...) -- CPU_ReadMem(1 bytes @ 0x20000890) - Data: C9  returns 0x00 (0001ms, 0591ms total)
T4318 020:172 JLINK_ReadMem (0x20000898, 0x0004 Bytes, ...) -- CPU_ReadMem(4 bytes @ 0x20000898) - Data: C8 0F 00 00  returns 0x00 (0001ms, 0592ms total)
T53E8 020:174 JLINK_IsHalted()  returns FALSE (0000ms, 0592ms total)
T53E8 020:274 JLINK_IsHalted()  returns FALSE (0000ms, 0592ms total)
T53E8 020:374 JLINK_IsHalted()  returns FALSE (0000ms, 0592ms total)
T53E8 020:474 JLINK_IsHalted()  returns FALSE (0000ms, 0592ms total)
T53E8 020:575 JLINK_IsHalted()  returns FALSE (0001ms, 0593ms total)
T53E8 020:676 JLINK_ReadMemU32(0xE0001004, 0x0001 Items, ...) - Data: C1 EA E1 02  returns 0x01 (0000ms, 0592ms total)
T4318 020:676 JLINK_ReadMem (0x20000000, 0x0002 Bytes, ...) -- CPU_ReadMem(2 bytes @ 0x20000000) - Data: 08 0F  returns 0x00 (0001ms, 0593ms total)
T4318 020:677 JLINK_ReadMem (0x20000004, 0x0004 Bytes, ...) -- CPU_ReadMem(4 bytes @ 0x20000004) - Data: BE FB 01 08  returns 0x00 (0001ms, 0594ms total)
T4318 020:678 JLINK_ReadMem (0x20000002, 0x0002 Bytes, ...) -- CPU_ReadMem(2 bytes @ 0x20000002) - Data: 00 00  returns 0x00 (0000ms, 0594ms total)
T4318 020:679 JLINK_ReadMem (0x2000088C, 0x0002 Bytes, ...) -- CPU_ReadMem(2 bytes @ 0x2000088C) - Data: CD 0F  returns 0x00 (0000ms, 0594ms total)
T4318 020:680 JLINK_ReadMem (0x20000890, 0x0001 Bytes, ...) -- CPU_ReadMem(1 bytes @ 0x20000890) - Data: CA  returns 0x00 (0001ms, 0595ms total)
T4318 020:682 JLINK_ReadMem (0x20000898, 0x0004 Bytes, ...) -- CPU_ReadMem(4 bytes @ 0x20000898) - Data: CE 0F 00 00  returns 0x00 (0001ms, 0596ms total)
T53E8 020:683 JLINK_IsHalted()  returns FALSE (0001ms, 0597ms total)
T53E8 020:784 JLINK_IsHalted()  returns FALSE (0001ms, 0597ms total)
T53E8 020:885 JLINK_IsHalted()  returns FALSE (0001ms, 0597ms total)
T53E8 020:986 JLINK_IsHalted()  returns FALSE (0000ms, 0596ms total)
T53E8 021:087 JLINK_IsHalted()  returns FALSE (0001ms, 0597ms total)
T53E8 021:188 JLINK_IsHalted()  returns FALSE (0001ms, 0597ms total)
T53E8 021:289 JLINK_ReadMemU32(0xE0001004, 0x0001 Items, ...) - Data: C1 EA E1 02  returns 0x01 (0000ms, 0596ms total)
T4318 021:289 JLINK_ReadMem (0x20000000, 0x0002 Bytes, ...) -- CPU_ReadMem(2 bytes @ 0x20000000) - Data: 08 0F  returns 0x00 (0001ms, 0597ms total)
T4318 021:290 JLINK_ReadMem (0x20000004, 0x0004 Bytes, ...) -- CPU_ReadMem(4 bytes @ 0x20000004) - Data: BE FB 01 08  returns 0x00 (0001ms, 0598ms total)
T4318 021:291 JLINK_ReadMem (0x20000002, 0x0002 Bytes, ...) -- CPU_ReadMem(2 bytes @ 0x20000002) - Data: 00 00  returns 0x00 (0001ms, 0599ms total)
T4318 021:292 JLINK_ReadMem (0x2000088C, 0x0002 Bytes, ...) -- CPU_ReadMem(2 bytes @ 0x2000088C) - Data: CA 0F  returns 0x00 (0001ms, 0600ms total)
T4318 021:294 JLINK_ReadMem (0x20000890, 0x0001 Bytes, ...) -- CPU_ReadMem(1 bytes @ 0x20000890) - Data: C9  returns 0x00 (0001ms, 0601ms total)
T4318 021:295 JLINK_ReadMem (0x20000898, 0x0004 Bytes, ...) -- CPU_ReadMem(4 bytes @ 0x20000898) - Data: C6 0F 00 00  returns 0x00 (0001ms, 0602ms total)
T53E8 021:297 JLINK_IsHalted()  returns FALSE (0001ms, 0603ms total)
T53E8 021:398 JLINK_IsHalted()  returns FALSE (0001ms, 0603ms total)
T53E8 021:499 JLINK_IsHalted()  returns FALSE (0000ms, 0602ms total)
T53E8 021:599 JLINK_IsHalted()  returns FALSE (0001ms, 0603ms total)
T53E8 021:700 JLINK_IsHalted()  returns FALSE (0001ms, 0603ms total)
T53E8 021:801 JLINK_ReadMemU32(0xE0001004, 0x0001 Items, ...) - Data: C1 EA E1 02  returns 0x01 (0000ms, 0602ms total)
T4318 021:802 JLINK_ReadMem (0x20000000, 0x0002 Bytes, ...) -- CPU_ReadMem(2 bytes @ 0x20000000) - Data: 08 0F  returns 0x00 (0001ms, 0603ms total)
T4318 021:803 JLINK_ReadMem (0x20000004, 0x0004 Bytes, ...) -- CPU_ReadMem(4 bytes @ 0x20000004) - Data: BE FB 01 08  returns 0x00 (0001ms, 0604ms total)
T4318 021:804 JLINK_ReadMem (0x20000002, 0x0002 Bytes, ...) -- CPU_ReadMem(2 bytes @ 0x20000002) - Data: 00 00  returns 0x00 (0001ms, 0605ms total)
T4318 021:805 JLINK_ReadMem (0x2000088C, 0x0002 Bytes, ...) -- CPU_ReadMem(2 bytes @ 0x2000088C) - Data: CE 0F  returns 0x00 (0000ms, 0605ms total)
T4318 021:806 JLINK_ReadMem (0x20000890, 0x0001 Bytes, ...) -- CPU_ReadMem(1 bytes @ 0x20000890) - Data: CB  returns 0x00 (0001ms, 0606ms total)
T4318 021:808 JLINK_ReadMem (0x20000898, 0x0004 Bytes, ...) -- CPU_ReadMem(4 bytes @ 0x20000898) - Data: CB 0F 00 00  returns 0x00 (0000ms, 0606ms total)
